
**** 12/04/24 21:06:36 ******* PSpice 17.4.0 (Nov 2018) ******* ID# 0 ********

 ** Profile: "SCHEMATIC1-BIAS"  [ d:\study\ee\hk241\lab4\altium\assignment\psp\draft-pspicefiles\schematic1\bias.sim ] 


 ****     CIRCUIT DESCRIPTION


******************************************************************************




** Creating circuit file "BIAS.cir" 
** WARNING: THIS AUTOMATICALLY GENERATED FILE MAY BE OVERWRITTEN BY SUBSEQUENT SIMULATIONS

*Libraries: 
* Profile Libraries :
* Local Libraries :
* From [PSPICE NETLIST] section of C:\cds_spb_home\cdssetup\OrCAD_PSpiceTIPSpice_Install\17.4.0\PSpice.ini file:
.lib "nom_pspti.lib" 
.lib "nom.lib" 

*Analysis directives: 
.OPTIONS ADVCONV
.OPTIONS FILEMODELSEARCH
.PROBE64 V(alias(*)) I(alias(*)) W(alias(*)) D(alias(*)) NOISE(alias(*)) 
.INC "..\SCHEMATIC1.net" 



**** INCLUDING SCHEMATIC1.net ****
* source DRAFT
R_R1         N01142 N00209  0.001 TC=0,0 
V_V1         N01138 0 3Vdc
D_D3         N01138 N01142 Dbreak 
X_D2         0 N00209 Zener_parameterized PARAMS: VZT=5 RSF=100m
C_C1         0 N00209  0.1uF  TC=0,0 

**** RESUMING BIAS.cir ****
.END

**** 12/04/24 21:06:36 ******* PSpice 17.4.0 (Nov 2018) ******* ID# 0 ********

 ** Profile: "SCHEMATIC1-BIAS"  [ d:\study\ee\hk241\lab4\altium\assignment\psp\draft-pspicefiles\schematic1\bias.sim ] 


 ****     SMALL SIGNAL BIAS SOLUTION       TEMPERATURE =   27.000 DEG C


******************************************************************************



 NODE   VOLTAGE     NODE   VOLTAGE     NODE   VOLTAGE     NODE   VOLTAGE


(N00209)    2.4161 (N01138)    3.0000 (N01142)    2.4161 (X_D2.1)   -2.0887     

(X_D2.3)    4.5047 (X_D2.9)-5.756E-15 




    VOLTAGE SOURCE CURRENTS
    NAME         CURRENT

    V_V1        -6.385E-05

    TOTAL POWER DISSIPATION   1.92E-04  WATTS



          JOB CONCLUDED

**** 12/04/24 21:06:36 ******* PSpice 17.4.0 (Nov 2018) ******* ID# 0 ********

 ** Profile: "SCHEMATIC1-BIAS"  [ d:\study\ee\hk241\lab4\altium\assignment\psp\draft-pspicefiles\schematic1\bias.sim ] 


 ****     JOB STATISTICS SUMMARY


******************************************************************************



  License check-out time            =        4.42
  Total job time (using Solver 1)   =         .28
